
**** 08/30/19 13:29:25 ******* PSpice Lite (March 2016) ******* ID# 10813 ****

 ** Profile: "SCHEMATIC1-prelab1"  [ C:\Users\nmunoz\Documents\wsu\EE352\LAB1\PreLab4_ee532-PSpiceFiles\SCHEMATIC1\prelab1.sim ] 


 ****     CIRCUIT DESCRIPTION


******************************************************************************




** Creating circuit file "prelab1.cir" 
** WARNING: THIS AUTOMATICALLY GENERATED FILE MAY BE OVERWRITTEN BY SUBSEQUENT SIMULATIONS

*Libraries: 
* Profile Libraries :
* Local Libraries :
* From [PSPICE NETLIST] section of C:\Users\nmunoz\AppData\Roaming\SPB_Data\cdssetup\OrCAD_PSpice\17.2.0\PSpice.ini file:
.lib "nomd.lib" 

*Analysis directives: 
.AC DEC 1000 1 47.2k
.OPTIONS ADVCONV
.PROBE64 V(alias(*)) I(alias(*)) W(alias(*)) D(alias(*)) NOISE(alias(*)) 
.INC "..\SCHEMATIC1.net" 



**** INCLUDING SCHEMATIC1.net ****
* source PRELAB4_EE532
R_R1         N143511 N14634  200000 TC=0,0 
R_R2         N14634 0  200000 TC=0,0 
R_R3         N14634 0  1000000 TC=0,0 
C_C1         N14634 0  95pF  TC=0,0 
V_V1         N143511 0 DC 5Vdc AC 5Vac 

**** RESUMING prelab1.cir ****
.END

**** 08/30/19 13:29:25 ******* PSpice Lite (March 2016) ******* ID# 10813 ****

 ** Profile: "SCHEMATIC1-prelab1"  [ C:\Users\nmunoz\Documents\wsu\EE352\LAB1\PreLab4_ee532-PSpiceFiles\SCHEMATIC1\prelab1.sim ] 


 ****     SMALL SIGNAL BIAS SOLUTION       TEMPERATURE =   27.000 DEG C


******************************************************************************



 NODE   VOLTAGE     NODE   VOLTAGE     NODE   VOLTAGE     NODE   VOLTAGE


(N14634)    2.2727 (N143511)    5.0000                   




    VOLTAGE SOURCE CURRENTS
    NAME         CURRENT

    V_V1        -1.364E-05

    TOTAL POWER DISSIPATION   6.82E-05  WATTS



          JOB CONCLUDED

**** 08/30/19 13:29:25 ******* PSpice Lite (March 2016) ******* ID# 10813 ****

 ** Profile: "SCHEMATIC1-prelab1"  [ C:\Users\nmunoz\Documents\wsu\EE352\LAB1\PreLab4_ee532-PSpiceFiles\SCHEMATIC1\prelab1.sim ] 


 ****     JOB STATISTICS SUMMARY


******************************************************************************



  Total job time (using Solver 1)   =         .08
