
**** 08/30/19 14:51:07 ******* PSpice Lite (March 2016) ******* ID# 10813 ****

 ** Profile: "SCHEMATIC1-bias"  [ C:\Users\nmunoz\Documents\wsu\EE352\LAB1\lab1_finalatmpt-pspicefiles\schematic1\bias.sim ] 


 ****     CIRCUIT DESCRIPTION


******************************************************************************




** Creating circuit file "bias.cir" 
** WARNING: THIS AUTOMATICALLY GENERATED FILE MAY BE OVERWRITTEN BY SUBSEQUENT SIMULATIONS

*Libraries: 
* Profile Libraries :
* Local Libraries :
* From [PSPICE NETLIST] section of C:\Users\nmunoz\AppData\Roaming\SPB_Data\cdssetup\OrCAD_PSpice\17.2.0\PSpice.ini file:
.lib "nomd.lib" 

*Analysis directives: 
.AC DEC 1000 1 47.k
.OPTIONS ADVCONV
.PROBE64 V(alias(*)) I(alias(*)) W(alias(*)) D(alias(*)) NOISE(alias(*)) 
.INC "..\SCHEMATIC1.net" 



**** INCLUDING SCHEMATIC1.net ****
* source LAB1_FINALATMPT
L_L1         N17139 N17002  1mH  
R_R1         0 N17002  300 TC=0,0 
R_R2         N17139 N16498  50 TC=0,0 
V_V1         N16498 0 DC 5 AC 5 

**** RESUMING bias.cir ****
.END

**** 08/30/19 14:51:07 ******* PSpice Lite (March 2016) ******* ID# 10813 ****

 ** Profile: "SCHEMATIC1-bias"  [ C:\Users\nmunoz\Documents\wsu\EE352\LAB1\lab1_finalatmpt-pspicefiles\schematic1\bias.sim ] 


 ****     SMALL SIGNAL BIAS SOLUTION       TEMPERATURE =   27.000 DEG C


******************************************************************************



 NODE   VOLTAGE     NODE   VOLTAGE     NODE   VOLTAGE     NODE   VOLTAGE


(N16498)    5.0000 (N17002)    4.2857 (N17139)    4.2857 




    VOLTAGE SOURCE CURRENTS
    NAME         CURRENT

    V_V1        -1.429E-02

    TOTAL POWER DISSIPATION   7.14E-02  WATTS



          JOB CONCLUDED

**** 08/30/19 14:51:07 ******* PSpice Lite (March 2016) ******* ID# 10813 ****

 ** Profile: "SCHEMATIC1-bias"  [ C:\Users\nmunoz\Documents\wsu\EE352\LAB1\lab1_finalatmpt-pspicefiles\schematic1\bias.sim ] 


 ****     JOB STATISTICS SUMMARY


******************************************************************************



  Total job time (using Solver 1)   =         .03
